<Qucs Dataset 0.0.15>
<indep R 100>
  +1.00000000000e+003
  +2.00000000000e+003
  +3.00000000000e+003
  +4.00000000000e+003
  +5.00000000000e+003
  +6.00000000000e+003
  +7.00000000000e+003
  +8.00000000000e+003
  +9.00000000000e+003
  +1.00000000000e+004
  +1.10000000000e+004
  +1.20000000000e+004
  +1.30000000000e+004
  +1.40000000000e+004
  +1.50000000000e+004
  +1.60000000000e+004
  +1.70000000000e+004
  +1.80000000000e+004
  +1.90000000000e+004
  +2.00000000000e+004
  +2.10000000000e+004
  +2.20000000000e+004
  +2.30000000000e+004
  +2.40000000000e+004
  +2.50000000000e+004
  +2.60000000000e+004
  +2.70000000000e+004
  +2.80000000000e+004
  +2.90000000000e+004
  +3.00000000000e+004
  +3.10000000000e+004
  +3.20000000000e+004
  +3.30000000000e+004
  +3.40000000000e+004
  +3.50000000000e+004
  +3.60000000000e+004
  +3.70000000000e+004
  +3.80000000000e+004
  +3.90000000000e+004
  +4.00000000000e+004
  +4.10000000000e+004
  +4.20000000000e+004
  +4.30000000000e+004
  +4.40000000000e+004
  +4.50000000000e+004
  +4.60000000000e+004
  +4.70000000000e+004
  +4.80000000000e+004
  +4.90000000000e+004
  +5.00000000000e+004
  +5.10000000000e+004
  +5.20000000000e+004
  +5.30000000000e+004
  +5.40000000000e+004
  +5.50000000000e+004
  +5.60000000000e+004
  +5.70000000000e+004
  +5.80000000000e+004
  +5.90000000000e+004
  +6.00000000000e+004
  +6.10000000000e+004
  +6.20000000000e+004
  +6.30000000000e+004
  +6.40000000000e+004
  +6.50000000000e+004
  +6.60000000000e+004
  +6.70000000000e+004
  +6.80000000000e+004
  +6.90000000000e+004
  +7.00000000000e+004
  +7.10000000000e+004
  +7.20000000000e+004
  +7.30000000000e+004
  +7.40000000000e+004
  +7.50000000000e+004
  +7.60000000000e+004
  +7.70000000000e+004
  +7.80000000000e+004
  +7.90000000000e+004
  +8.00000000000e+004
  +8.10000000000e+004
  +8.20000000000e+004
  +8.30000000000e+004
  +8.40000000000e+004
  +8.50000000000e+004
  +8.60000000000e+004
  +8.70000000000e+004
  +8.80000000000e+004
  +8.90000000000e+004
  +9.00000000000e+004
  +9.10000000000e+004
  +9.20000000000e+004
  +9.30000000000e+004
  +9.40000000000e+004
  +9.50000000000e+004
  +9.60000000000e+004
  +9.70000000000e+004
  +9.80000000000e+004
  +9.90000000000e+004
  +1.00000000000e+005
</indep>
<dep Pr1.V R>
  +1.40000000000e+001
  +1.40000000000e+001
  +1.40000000000e+001
  +1.40000000000e+001
  +1.40000000000e+001
  +1.40000000000e+001
  +1.40000000000e+001
  +1.40000000000e+001
  +1.40000000000e+001
  +1.40000000000e+001
  +1.40000000000e+001
  +1.40000000000e+001
  +1.40000000000e+001
  +1.40000000000e+001
  +1.40000000000e+001
  +1.40000000000e+001
  +1.40000000000e+001
  +1.40000000000e+001
  +1.40000000000e+001
  +1.40000000000e+001
  +1.40000000000e+001
  +1.40000000000e+001
  +1.40000000000e+001
  +1.40000000000e+001
  +1.40000000000e+001
  +1.40000000000e+001
  +1.40000000000e+001
  +1.40000000000e+001
  +1.40000000000e+001
  +1.40000000000e+001
  +1.40000000000e+001
  +1.40000000000e+001
  +1.40000000000e+001
  +1.40000000000e+001
  +1.40000000000e+001
  +1.40000000000e+001
  +1.40000000000e+001
  +1.40000000000e+001
  +1.40000000000e+001
  +1.40000000000e+001
  +1.40000000000e+001
  +1.40000000000e+001
  +1.40000000000e+001
  +1.40000000000e+001
  +1.40000000000e+001
  +1.40000000000e+001
  +1.40000000000e+001
  +1.40000000000e+001
  +1.40000000000e+001
  +1.40000000000e+001
  +1.40000000000e+001
  +1.40000000000e+001
  +1.40000000000e+001
  +1.40000000000e+001
  +1.40000000000e+001
  +1.40000000000e+001
  +1.40000000000e+001
  +1.40000000000e+001
  +1.40000000000e+001
  +1.40000000000e+001
  +1.40000000000e+001
  +1.40000000000e+001
  +1.40000000000e+001
  +1.40000000000e+001
  +1.40000000000e+001
  +1.40000000000e+001
  +1.40000000000e+001
  +1.40000000000e+001
  +1.40000000000e+001
  +1.40000000000e+001
  +1.40000000000e+001
  +1.40000000000e+001
  +1.40000000000e+001
  +1.40000000000e+001
  +1.40000000000e+001
  +1.40000000000e+001
  +1.40000000000e+001
  +1.40000000000e+001
  +1.40000000000e+001
  +1.40000000000e+001
  +1.40000000000e+001
  +1.40000000000e+001
  +1.40000000000e+001
  +1.40000000000e+001
  +1.40000000000e+001
  +1.40000000000e+001
  +1.40000000000e+001
  +1.40000000000e+001
  +1.40000000000e+001
  +1.40000000000e+001
  +1.40000000000e+001
  +1.40000000000e+001
  +1.40000000000e+001
  +1.40000000000e+001
  +1.40000000000e+001
  +1.40000000000e+001
  +1.40000000000e+001
  +1.40000000000e+001
  +1.40000000000e+001
  +1.40000000000e+001
</dep>
<dep V1.I R>
  +0.00000000000e+000
  +0.00000000000e+000
  +0.00000000000e+000
  +0.00000000000e+000
  +0.00000000000e+000
  +0.00000000000e+000
  +0.00000000000e+000
  +0.00000000000e+000
  +0.00000000000e+000
  +0.00000000000e+000
  +0.00000000000e+000
  +0.00000000000e+000
  +0.00000000000e+000
  +0.00000000000e+000
  +0.00000000000e+000
  +0.00000000000e+000
  +0.00000000000e+000
  +0.00000000000e+000
  +0.00000000000e+000
  +0.00000000000e+000
  +0.00000000000e+000
  +0.00000000000e+000
  +0.00000000000e+000
  +0.00000000000e+000
  +0.00000000000e+000
  +0.00000000000e+000
  +0.00000000000e+000
  +0.00000000000e+000
  +0.00000000000e+000
  +0.00000000000e+000
  +0.00000000000e+000
  +0.00000000000e+000
  +0.00000000000e+000
  +0.00000000000e+000
  +0.00000000000e+000
  +0.00000000000e+000
  +0.00000000000e+000
  +0.00000000000e+000
  +0.00000000000e+000
  +0.00000000000e+000
  +0.00000000000e+000
  +0.00000000000e+000
  +0.00000000000e+000
  +0.00000000000e+000
  +0.00000000000e+000
  +0.00000000000e+000
  +0.00000000000e+000
  +0.00000000000e+000
  +0.00000000000e+000
  +0.00000000000e+000
  +0.00000000000e+000
  +0.00000000000e+000
  +0.00000000000e+000
  +0.00000000000e+000
  +0.00000000000e+000
  +0.00000000000e+000
  +0.00000000000e+000
  +0.00000000000e+000
  +0.00000000000e+000
  +0.00000000000e+000
  +0.00000000000e+000
  +0.00000000000e+000
  +0.00000000000e+000
  +0.00000000000e+000
  +0.00000000000e+000
  +0.00000000000e+000
  +0.00000000000e+000
  +0.00000000000e+000
  +0.00000000000e+000
  +0.00000000000e+000
  +0.00000000000e+000
  +0.00000000000e+000
  +0.00000000000e+000
  +0.00000000000e+000
  +0.00000000000e+000
  +0.00000000000e+000
  +0.00000000000e+000
  +0.00000000000e+000
  +0.00000000000e+000
  +0.00000000000e+000
  +0.00000000000e+000
  +0.00000000000e+000
  +0.00000000000e+000
  +0.00000000000e+000
  +0.00000000000e+000
  +0.00000000000e+000
  +0.00000000000e+000
  +0.00000000000e+000
  +0.00000000000e+000
  +0.00000000000e+000
  +0.00000000000e+000
  +0.00000000000e+000
  +0.00000000000e+000
  +0.00000000000e+000
  +0.00000000000e+000
  +0.00000000000e+000
  +0.00000000000e+000
  +0.00000000000e+000
  +0.00000000000e+000
  +0.00000000000e+000
</dep>
<dep _net0.V R>
  +1.40000000000e+001
  +1.40000000000e+001
  +1.40000000000e+001
  +1.40000000000e+001
  +1.40000000000e+001
  +1.40000000000e+001
  +1.40000000000e+001
  +1.40000000000e+001
  +1.40000000000e+001
  +1.40000000000e+001
  +1.40000000000e+001
  +1.40000000000e+001
  +1.40000000000e+001
  +1.40000000000e+001
  +1.40000000000e+001
  +1.40000000000e+001
  +1.40000000000e+001
  +1.40000000000e+001
  +1.40000000000e+001
  +1.40000000000e+001
  +1.40000000000e+001
  +1.40000000000e+001
  +1.40000000000e+001
  +1.40000000000e+001
  +1.40000000000e+001
  +1.40000000000e+001
  +1.40000000000e+001
  +1.40000000000e+001
  +1.40000000000e+001
  +1.40000000000e+001
  +1.40000000000e+001
  +1.40000000000e+001
  +1.40000000000e+001
  +1.40000000000e+001
  +1.40000000000e+001
  +1.40000000000e+001
  +1.40000000000e+001
  +1.40000000000e+001
  +1.40000000000e+001
  +1.40000000000e+001
  +1.40000000000e+001
  +1.40000000000e+001
  +1.40000000000e+001
  +1.40000000000e+001
  +1.40000000000e+001
  +1.40000000000e+001
  +1.40000000000e+001
  +1.40000000000e+001
  +1.40000000000e+001
  +1.40000000000e+001
  +1.40000000000e+001
  +1.40000000000e+001
  +1.40000000000e+001
  +1.40000000000e+001
  +1.40000000000e+001
  +1.40000000000e+001
  +1.40000000000e+001
  +1.40000000000e+001
  +1.40000000000e+001
  +1.40000000000e+001
  +1.40000000000e+001
  +1.40000000000e+001
  +1.40000000000e+001
  +1.40000000000e+001
  +1.40000000000e+001
  +1.40000000000e+001
  +1.40000000000e+001
  +1.40000000000e+001
  +1.40000000000e+001
  +1.40000000000e+001
  +1.40000000000e+001
  +1.40000000000e+001
  +1.40000000000e+001
  +1.40000000000e+001
  +1.40000000000e+001
  +1.40000000000e+001
  +1.40000000000e+001
  +1.40000000000e+001
  +1.40000000000e+001
  +1.40000000000e+001
  +1.40000000000e+001
  +1.40000000000e+001
  +1.40000000000e+001
  +1.40000000000e+001
  +1.40000000000e+001
  +1.40000000000e+001
  +1.40000000000e+001
  +1.40000000000e+001
  +1.40000000000e+001
  +1.40000000000e+001
  +1.40000000000e+001
  +1.40000000000e+001
  +1.40000000000e+001
  +1.40000000000e+001
  +1.40000000000e+001
  +1.40000000000e+001
  +1.40000000000e+001
  +1.40000000000e+001
  +1.40000000000e+001
  +1.40000000000e+001
</dep>
<dep _net1.V R>
  +1.40000000000e+001
  +1.40000000000e+001
  +1.40000000000e+001
  +1.40000000000e+001
  +1.40000000000e+001
  +1.40000000000e+001
  +1.40000000000e+001
  +1.40000000000e+001
  +1.40000000000e+001
  +1.40000000000e+001
  +1.40000000000e+001
  +1.40000000000e+001
  +1.40000000000e+001
  +1.40000000000e+001
  +1.40000000000e+001
  +1.40000000000e+001
  +1.40000000000e+001
  +1.40000000000e+001
  +1.40000000000e+001
  +1.40000000000e+001
  +1.40000000000e+001
  +1.40000000000e+001
  +1.40000000000e+001
  +1.40000000000e+001
  +1.40000000000e+001
  +1.40000000000e+001
  +1.40000000000e+001
  +1.40000000000e+001
  +1.40000000000e+001
  +1.40000000000e+001
  +1.40000000000e+001
  +1.40000000000e+001
  +1.40000000000e+001
  +1.40000000000e+001
  +1.40000000000e+001
  +1.40000000000e+001
  +1.40000000000e+001
  +1.40000000000e+001
  +1.40000000000e+001
  +1.40000000000e+001
  +1.40000000000e+001
  +1.40000000000e+001
  +1.40000000000e+001
  +1.40000000000e+001
  +1.40000000000e+001
  +1.40000000000e+001
  +1.40000000000e+001
  +1.40000000000e+001
  +1.40000000000e+001
  +1.40000000000e+001
  +1.40000000000e+001
  +1.40000000000e+001
  +1.40000000000e+001
  +1.40000000000e+001
  +1.40000000000e+001
  +1.40000000000e+001
  +1.40000000000e+001
  +1.40000000000e+001
  +1.40000000000e+001
  +1.40000000000e+001
  +1.40000000000e+001
  +1.40000000000e+001
  +1.40000000000e+001
  +1.40000000000e+001
  +1.40000000000e+001
  +1.40000000000e+001
  +1.40000000000e+001
  +1.40000000000e+001
  +1.40000000000e+001
  +1.40000000000e+001
  +1.40000000000e+001
  +1.40000000000e+001
  +1.40000000000e+001
  +1.40000000000e+001
  +1.40000000000e+001
  +1.40000000000e+001
  +1.40000000000e+001
  +1.40000000000e+001
  +1.40000000000e+001
  +1.40000000000e+001
  +1.40000000000e+001
  +1.40000000000e+001
  +1.40000000000e+001
  +1.40000000000e+001
  +1.40000000000e+001
  +1.40000000000e+001
  +1.40000000000e+001
  +1.40000000000e+001
  +1.40000000000e+001
  +1.40000000000e+001
  +1.40000000000e+001
  +1.40000000000e+001
  +1.40000000000e+001
  +1.40000000000e+001
  +1.40000000000e+001
  +1.40000000000e+001
  +1.40000000000e+001
  +1.40000000000e+001
  +1.40000000000e+001
  +1.40000000000e+001
</dep>
