<Qucs Dataset 0.0.15>
<indep time 11>
  +0.00000000000e+000
  +1.00000000000e-002
  +2.00000000000e-002
  +3.00000000000e-002
  +4.00000000000e-002
  +5.00000000000e-002
  +6.00000000000e-002
  +7.00000000000e-002
  +8.00000000000e-002
  +9.00000000000e-002
  +1.00000000000e-001
</indep>
<dep Pr1.Vt time>
  +4.99999999943e+000
  +7.53967517402e+000
  +8.50999018454e+000
  +9.14409228792e+000
  +9.58073513154e+000
  +9.88138613601e+000
  +1.00884277635e+001
  +1.02310536623e+001
  +1.03295371629e+001
  +1.03979428585e+001
  +1.04461061754e+001
</dep>
<dep S1S2.Vt time>
  -3.41156863234e-001
  +1.36078834322e+000
  +2.33104568995e+000
  +2.96546846900e+000
  +3.40193144123e+000
  +3.70224982211e+000
  +3.90947854521e+000
  +4.05175525206e+000
  +4.14888838702e+000
  +4.21447831155e+000
  +4.25764272131e+000
</dep>
<dep S2S3.Vt time>
  +1.24999997702e+000
  +1.83988326327e+000
  +1.83993572815e+000
  +1.83970754950e+000
  +1.83984212808e+000
  +1.84003117945e+000
  +1.83991166027e+000
  +1.83995518793e+000
  +1.84025699212e+000
  +1.84094683634e+000
  +1.84270771226e+000
</dep>
<dep S0S1.Vt time>
  -9.08843114357e-001
  -6.60996432475e-001
  -6.60991233555e-001
  -6.61083730582e-001
  -6.61038437768e-001
  -6.60894865553e-001
  -6.60962442011e-001
  -6.60656777677e-001
  -6.59608216286e-001
  -6.57482289388e-001
  -6.54244258220e-001
</dep>
<dep V1.It time>
  -1.85294823895e+000
  -1.32608086818e-004
  +1.71827856236e-005
  +4.77860654840e-005
  +4.70851612956e-004
  +2.40776593887e-004
  -3.17491571093e-004
  -1.07330920088e-004
  -1.57767988721e-004
  -2.97187671957e-004
  -3.33546097789e-004
</dep>
<dep V2.It time>
  +1.85294821253e+000
  -2.58465674554e-004
  -4.37275942547e-004
  +1.28550585447e-003
  -6.53385541904e-004
  -9.64097779037e-004
  -1.05571603813e-003
  +2.02515215958e-003
  -2.08918710118e-003
  +2.91181146904e-003
  +2.74260275547e-003
</dep>
<dep V3.It time>
  +2.64095366643e-008
  +5.09195779328e-004
  +7.91212909674e-004
  -2.04827931732e-003
  -6.69357862015e-005
  +9.20019642669e-004
  +1.37500686757e-003
  -1.97984606977e-003
  +2.57842935010e-003
  -3.35456783476e-003
  -2.58593334536e-003
</dep>
<dep _net3.Vt time>
  +0.00000000000e+000
  -6.77626357803e-010
  -1.35525271561e-009
  -6.36968776335e-009
  -2.71050543121e-009
  +9.48676900925e-010
  -1.27393755267e-008
  +8.26704156520e-009
  -5.42101086243e-009
  +0.00000000000e+000
  +1.89735380185e-009
</dep>
<dep S2.Vt time>
  +3.75000002241e+000
  +5.69979191074e+000
  +6.67005445639e+000
  +7.30438473842e+000
  +7.74089300346e+000
  +8.04135495656e+000
  +8.24851610320e+000
  +8.39109847438e+000
  +8.48928017073e+000
  +8.55699602216e+000
  +8.60339846309e+000
</dep>
<dep _net2.Vt time>
  +0.00000000000e+000
  -1.35525271561e-009
  -2.71050543121e-009
  -1.27393755267e-008
  -5.42101086243e-009
  +1.89735380185e-009
  -2.54787510534e-008
  +1.65340831304e-008
  -1.08420217249e-008
  +0.00000000000e+000
  +3.79470760370e-009
</dep>
<dep S1.Vt time>
  +4.09115688564e+000
  +4.33900356752e+000
  +4.33900876644e+000
  +4.33891626942e+000
  +4.33896156223e+000
  +4.33910513445e+000
  +4.33903755799e+000
  +4.33934322232e+000
  +4.34039178371e+000
  +4.34251771061e+000
  +4.34575574178e+000
</dep>
<dep _net1.Vt time>
  +5.00000000000e+000
  +5.00000000000e+000
  +5.00000000000e+000
  +5.00000000000e+000
  +5.00000000000e+000
  +5.00000000000e+000
  +5.00000000000e+000
  +5.00000000000e+000
  +5.00000000000e+000
  +5.00000000000e+000
  +5.00000000000e+000
</dep>
<dep _net0.Vt time>
  +4.99999999943e+000
  +7.53967517402e+000
  +8.50999018454e+000
  +9.14409228792e+000
  +9.58073513154e+000
  +9.88138613601e+000
  +1.00884277635e+001
  +1.02310536623e+001
  +1.03295371629e+001
  +1.03979428585e+001
  +1.04461061754e+001
</dep>
