<Qucs Dataset 0.0.14>
<indep R1 201>
  +1.00000000000e+00
  +5.99500000000e+00
  +1.09900000000e+01
  +1.59850000000e+01
  +2.09800000000e+01
  +2.59750000000e+01
  +3.09700000000e+01
  +3.59650000000e+01
  +4.09600000000e+01
  +4.59550000000e+01
  +5.09500000000e+01
  +5.59450000000e+01
  +6.09400000000e+01
  +6.59350000000e+01
  +7.09300000000e+01
  +7.59250000000e+01
  +8.09200000000e+01
  +8.59150000000e+01
  +9.09100000000e+01
  +9.59050000000e+01
  +1.00900000000e+02
  +1.05895000000e+02
  +1.10890000000e+02
  +1.15885000000e+02
  +1.20880000000e+02
  +1.25875000000e+02
  +1.30870000000e+02
  +1.35865000000e+02
  +1.40860000000e+02
  +1.45855000000e+02
  +1.50850000000e+02
  +1.55845000000e+02
  +1.60840000000e+02
  +1.65835000000e+02
  +1.70830000000e+02
  +1.75825000000e+02
  +1.80820000000e+02
  +1.85815000000e+02
  +1.90810000000e+02
  +1.95805000000e+02
  +2.00800000000e+02
  +2.05795000000e+02
  +2.10790000000e+02
  +2.15785000000e+02
  +2.20780000000e+02
  +2.25775000000e+02
  +2.30770000000e+02
  +2.35765000000e+02
  +2.40760000000e+02
  +2.45755000000e+02
  +2.50750000000e+02
  +2.55745000000e+02
  +2.60740000000e+02
  +2.65735000000e+02
  +2.70730000000e+02
  +2.75725000000e+02
  +2.80720000000e+02
  +2.85715000000e+02
  +2.90710000000e+02
  +2.95705000000e+02
  +3.00700000000e+02
  +3.05695000000e+02
  +3.10690000000e+02
  +3.15685000000e+02
  +3.20680000000e+02
  +3.25675000000e+02
  +3.30670000000e+02
  +3.35665000000e+02
  +3.40660000000e+02
  +3.45655000000e+02
  +3.50650000000e+02
  +3.55645000000e+02
  +3.60640000000e+02
  +3.65635000000e+02
  +3.70630000000e+02
  +3.75625000000e+02
  +3.80620000000e+02
  +3.85615000000e+02
  +3.90610000000e+02
  +3.95605000000e+02
  +4.00600000000e+02
  +4.05595000000e+02
  +4.10590000000e+02
  +4.15585000000e+02
  +4.20580000000e+02
  +4.25575000000e+02
  +4.30570000000e+02
  +4.35565000000e+02
  +4.40560000000e+02
  +4.45555000000e+02
  +4.50550000000e+02
  +4.55545000000e+02
  +4.60540000000e+02
  +4.65535000000e+02
  +4.70530000000e+02
  +4.75525000000e+02
  +4.80520000000e+02
  +4.85515000000e+02
  +4.90510000000e+02
  +4.95505000000e+02
  +5.00500000000e+02
  +5.05495000000e+02
  +5.10490000000e+02
  +5.15485000000e+02
  +5.20480000000e+02
  +5.25475000000e+02
  +5.30470000000e+02
  +5.35465000000e+02
  +5.40460000000e+02
  +5.45455000000e+02
  +5.50450000000e+02
  +5.55445000000e+02
  +5.60440000000e+02
  +5.65435000000e+02
  +5.70430000000e+02
  +5.75425000000e+02
  +5.80420000000e+02
  +5.85415000000e+02
  +5.90410000000e+02
  +5.95405000000e+02
  +6.00400000000e+02
  +6.05395000000e+02
  +6.10390000000e+02
  +6.15385000000e+02
  +6.20380000000e+02
  +6.25375000000e+02
  +6.30370000000e+02
  +6.35365000000e+02
  +6.40360000000e+02
  +6.45355000000e+02
  +6.50350000000e+02
  +6.55345000000e+02
  +6.60340000000e+02
  +6.65335000000e+02
  +6.70330000000e+02
  +6.75325000000e+02
  +6.80320000000e+02
  +6.85315000000e+02
  +6.90310000000e+02
  +6.95305000000e+02
  +7.00300000000e+02
  +7.05295000000e+02
  +7.10290000000e+02
  +7.15285000000e+02
  +7.20280000000e+02
  +7.25275000000e+02
  +7.30270000000e+02
  +7.35265000000e+02
  +7.40260000000e+02
  +7.45255000000e+02
  +7.50250000000e+02
  +7.55245000000e+02
  +7.60240000000e+02
  +7.65235000000e+02
  +7.70230000000e+02
  +7.75225000000e+02
  +7.80220000000e+02
  +7.85215000000e+02
  +7.90210000000e+02
  +7.95205000000e+02
  +8.00200000000e+02
  +8.05195000000e+02
  +8.10190000000e+02
  +8.15185000000e+02
  +8.20180000000e+02
  +8.25175000000e+02
  +8.30170000000e+02
  +8.35165000000e+02
  +8.40160000000e+02
  +8.45155000000e+02
  +8.50150000000e+02
  +8.55145000000e+02
  +8.60140000000e+02
  +8.65135000000e+02
  +8.70130000000e+02
  +8.75125000000e+02
  +8.80120000000e+02
  +8.85115000000e+02
  +8.90110000000e+02
  +8.95105000000e+02
  +9.00100000000e+02
  +9.05095000000e+02
  +9.10090000000e+02
  +9.15085000000e+02
  +9.20080000000e+02
  +9.25075000000e+02
  +9.30070000000e+02
  +9.35065000000e+02
  +9.40060000000e+02
  +9.45055000000e+02
  +9.50050000000e+02
  +9.55045000000e+02
  +9.60040000000e+02
  +9.65035000000e+02
  +9.70030000000e+02
  +9.75025000000e+02
  +9.80020000000e+02
  +9.85015000000e+02
  +9.90010000000e+02
  +9.95005000000e+02
  +1.00000000000e+03
</indep>
<dep Rbase R1>
  +1.00000000000e+06
  +1.66805671393e+05
  +9.09918107370e+04
  +6.25586487332e+04
  +4.76644423260e+04
  +3.84985563041e+04
  +3.22893122376e+04
  +2.78048102322e+04
  +2.44140625000e+04
  +2.17604178000e+04
  +1.96270853778e+04
  +1.78746983645e+04
  +1.64095831966e+04
  +1.51664518086e+04
  +1.40984068800e+04
  +1.31708923280e+04
  +1.23578843302e+04
  +1.16394110458e+04
  +1.09998900011e+04
  +1.04269850373e+04
  +9.91080277502e+03
  +9.44331649275e+03
  +9.01794571197e+03
  +8.62924450964e+03
  +8.27266710788e+03
  +7.94438927507e+03
  +7.64117062734e+03
  +7.36024730431e+03
  +7.09924747977e+03
  +6.85612423297e+03
  +6.62910175671e+03
  +6.41663190991e+03
  +6.21735886595e+03
  +6.03009014985e+03
  +5.85377275654e+03
  +5.68747333997e+03
  +5.53036168565e+03
  +5.38169684902e+03
  +5.24081547089e+03
  +5.10712188146e+03
  +4.98007968127e+03
  +4.85920454822e+03
  +4.74405806727e+03
  +4.63424241722e+03
  +4.52939577860e+03
  +4.42918835123e+03
  +4.33331888894e+03
  +4.24151167476e+03
  +4.15351387274e+03
  +4.06909320258e+03
  +3.98803589232e+03
  +3.91014487087e+03
  +3.83523816829e+03
  +3.76314749657e+03
  +3.69371698740e+03
  +3.62680206728e+03
  +3.56226845255e+03
  +3.49999125002e+03
  +3.43985415018e+03
  +3.38174870225e+03
  +3.32557366146e+03
  +3.27123440030e+03
  +3.21864237665e+03
  +3.16771465226e+03
  +3.11837345641e+03
  +3.07054578951e+03
  +3.02416306287e+03
  +2.97916077041e+03
  +2.93547818940e+03
  +2.89305810707e+03
  +2.85184657065e+03
  +2.81179265841e+03
  +2.77284826974e+03
  +2.73496793250e+03
  +2.69810862585e+03
  +2.66222961730e+03
  +2.62729231254e+03
  +2.59326011696e+03
  +2.56009830778e+03
  +2.52777391590e+03
  +2.49625561658e+03
  +2.46551362813e+03
  +2.43551961811e+03
  +2.40624661622e+03
  +2.37766893338e+03
  +2.34976208659e+03
  +2.32250272894e+03
  +2.29586858448e+03
  +2.26983838751e+03
  +2.24439182592e+03
  +2.21950948840e+03
  +2.19517281498e+03
  +2.17136405090e+03
  +2.14806620340e+03
  +2.12526300130e+03
  +2.10293885705e+03
  +2.08107883127e+03
  +2.05966859932e+03
  +2.03869442009e+03
  +2.01814310653e+03
  +1.99800199800e+03
  +1.97825893431e+03
  +1.95890223119e+03
  +1.93992065725e+03
  +1.92130341223e+03
  +1.90304010657e+03
  +1.88512074198e+03
  +1.86753569328e+03
  +1.85027569108e+03
  +1.83333180556e+03
  +1.81669543101e+03
  +1.80035827130e+03
  +1.78431232603e+03
  +1.76854987753e+03
  +1.75306347843e+03
  +1.73784593996e+03
  +1.72289032080e+03
  +1.70818991655e+03
  +1.69373824969e+03
  +1.67952906005e+03
  +1.66555629580e+03
  +1.65181410484e+03
  +1.63829682662e+03
  +1.62499898438e+03
  +1.61191527773e+03
  +1.59904057565e+03
  +1.58636990974e+03
  +1.57389846781e+03
  +1.56162158786e+03
  +1.54953475219e+03
  +1.53763358192e+03
  +1.52591383165e+03
  +1.51437138444e+03
  +1.50300224699e+03
  +1.49180254502e+03
  +1.48076851886e+03
  +1.46989651929e+03
  +1.45918300344e+03
  +1.44862453101e+03
  +1.43821776055e+03
  +1.42795944595e+03
  +1.41784643305e+03
  +1.40787565642e+03
  +1.39804413625e+03
  +1.38834897540e+03
  +1.37878735652e+03
  +1.36935653936e+03
  +1.36005385813e+03
  +1.35087671899e+03
  +1.34182259763e+03
  +1.33288903699e+03
  +1.32407364498e+03
  +1.31537409239e+03
  +1.30678811084e+03
  +1.29831349078e+03
  +1.28994807959e+03
  +1.28168977981e+03
  +1.27353654732e+03
  +1.26548638969e+03
  +1.25753736458e+03
  +1.24968757811e+03
  +1.24193518340e+03
  +1.23427837915e+03
  +1.22671540816e+03
  +1.21924455607e+03
  +1.21186415003e+03
  +1.20457255743e+03
  +1.19736818473e+03
  +1.19024947629e+03
  +1.18321491324e+03
  +1.17626301241e+03
  +1.16939232528e+03
  +1.16260143698e+03
  +1.15588896531e+03
  +1.14925355981e+03
  +1.14269390087e+03
  +1.13620869881e+03
  +1.12979669309e+03
  +1.12345665143e+03
  +1.11718736908e+03
  +1.11098766804e+03
  +1.10485639629e+03
  +1.09879242712e+03
  +1.09279465842e+03
  +1.08686201200e+03
  +1.08099343296e+03
  +1.07518788908e+03
  +1.06944437018e+03
  +1.06376188754e+03
  +1.05813947336e+03
  +1.05257618020e+03
  +1.04707108042e+03
  +1.04162326570e+03
  +1.03623184651e+03
  +1.03089595167e+03
  +1.02561472783e+03
  +1.02038733903e+03
  +1.01521296630e+03
  +1.01009080716e+03
  +1.00502007528e+03
  +1.00000000000e+03
</dep>
<dep V1.I R1>
  -8.46702624993e-05
  -5.32518702502e-04
  -9.27563681797e-04
  -1.27216574742e-03
  -1.57452927068e-03
  -1.84174999950e-03
  -2.07955934041e-03
  -2.29255089810e-03
  -2.48442431685e-03
  -2.65818385704e-03
  -2.81629107200e-03
  -2.96078071985e-03
  -3.09334889982e-03
  -3.21542051766e-03
  -3.32820137235e-03
  -3.43271873947e-03
  -3.52985327746e-03
  -3.62036433507e-03
  -3.70491019133e-03
  -3.78406437129e-03
  -3.85832889675e-03
  -3.92814512234e-03
  -3.99390265575e-03
  -4.05594674628e-03
  -4.11458443985e-03
  -4.17008973493e-03
  -4.22270792358e-03
  -4.27265926456e-03
  -4.32014210508e-03
  -4.36533554595e-03
  -4.40840172632e-03
  -4.44948778953e-03
  -4.48872758157e-03
  -4.52624312301e-03
  -4.56214588973e-03
  -4.59653792997e-03
  -4.62951284228e-03
  -4.66115663414e-03
  -4.69154847753e-03
  -4.72076137595e-03
  -4.74886275484e-03
  -4.77591498521e-03
  -4.80197584918e-03
  -4.82709895530e-03
  -4.85133410912e-03
  -4.87472764497e-03
  -4.89732272383e-03
  -4.91915960061e-03
  -4.94027586517e-03
  -4.96070665950e-03
  -4.98048487403e-03
  -4.99964132539e-03
  -5.01820491746e-03
  -5.03620278776e-03
  -5.05366044039e-03
  -5.07060186736e-03
  -5.08704965910e-03
  -5.10302510537e-03
  -5.11854828776e-03
  -5.13363816420e-03
  -5.14831264660e-03
  -5.16258867199e-03
  -5.17648226812e-03
  -5.19000861373e-03
  -5.20318209394e-03
  -5.21601635165e-03
  -5.22852433481e-03
  -5.24071834006e-03
  -5.25261005332e-03
  -5.26421058721e-03
  -5.27553051581e-03
  -5.28657990695e-03
  -5.29736835215e-03
  -5.30790499445e-03
  -5.31819855440e-03
  -5.32825735417e-03
  -5.33808934004e-03
  -5.34770210344e-03
  -5.35710290049e-03
  -5.36629867041e-03
  -5.37529605257e-03
  -5.38410140259e-03
  -5.39272080723e-03
  -5.40116009862e-03
  -5.40942486735e-03
  -5.41752047484e-03
  -5.42545206504e-03
  -5.43322457530e-03
  -5.44084274668e-03
  -5.44831113355e-03
  -5.45563411278e-03
  -5.46281589225e-03
  -5.46986051895e-03
  -5.47677188660e-03
  -5.48355374283e-03
  -5.49020969600e-03
  -5.49674322158e-03
  -5.50315766824e-03
  -5.50945626355e-03
  -5.51564211945e-03
  -5.52171823739e-03
  -5.52768751310e-03
  -5.53355274132e-03
  -5.53931662011e-03
  -5.54498175501e-03
  -5.55055066297e-03
  -5.55602577608e-03
  -5.56140944509e-03
  -5.56670394289e-03
  -5.57191146759e-03
  -5.57703414558e-03
  -5.58207403453e-03
  -5.58703312607e-03
  -5.59191334841e-03
  -5.59671656888e-03
  -5.60144459630e-03
  -5.60609918327e-03
  -5.61068202829e-03
  -5.61519477792e-03
  -5.61963902864e-03
  -5.62401632886e-03
  -5.62832818060e-03
  -5.63257604129e-03
  -5.63676132542e-03
  -5.64088540603e-03
  -5.64494961632e-03
  -5.64895525100e-03
  -5.65290356773e-03
  -5.65679578841e-03
  -5.66063310039e-03
  -5.66441665784e-03
  -5.66814758270e-03
  -5.67182696597e-03
  -5.67545586862e-03
  -5.67903532276e-03
  -5.68256633252e-03
  -5.68604987499e-03
  -5.68948690123e-03
  -5.69287833694e-03
  -5.69622508353e-03
  -5.69952801872e-03
  -5.70278799741e-03
  -5.70600585242e-03
  -5.70918239512e-03
  -5.71231841624e-03
  -5.71541468639e-03
  -5.71847195680e-03
  -5.72149095986e-03
  -5.72447240976e-03
  -5.72741700298e-03
  -5.73032541892e-03
  -5.73319832037e-03
  -5.73603635401e-03
  -5.73884015093e-03
  -5.74161032705e-03
  -5.74434748365e-03
  -5.74705220770e-03
  -5.74972507236e-03
  -5.75236663738e-03
  -5.75497744945e-03
  -5.75755804259e-03
  -5.76010893854e-03
  -5.76263064711e-03
  -5.76512366646e-03
  -5.76758848353e-03
  -5.77002557426e-03
  -5.77243540396e-03
  -5.77481842756e-03
  -5.77717508996e-03
  -5.77950582624e-03
  -5.78181106196e-03
  -5.78409121340e-03
  -5.78634668789e-03
  -5.78857788389e-03
  -5.79078519140e-03
  -5.79296899209e-03
  -5.79512965953e-03
  -5.79726755943e-03
  -5.79938304981e-03
  -5.80147648125e-03
  -5.80354819703e-03
  -5.80559853336e-03
  -5.80762781953e-03
  -5.80963637810e-03
  -5.81162452510e-03
  -5.81359257012e-03
  -5.81554081656e-03
  -5.81746956173e-03
  -5.81937909701e-03
  -5.82126970801e-03
  -5.82314167472e-03
  -5.82499527159e-03
  -5.82683076775e-03
  -5.82864842709e-03
  -5.83044850838e-03
  -5.83223126541e-03
  -5.83399694712e-03
  -5.83574579771e-03
  -5.83747805670e-03
  -5.83919395914e-03
  -5.84089373562e-03
</dep>
<dep Base.V R1>
  +5.78417169428e-01
  +6.48641643529e-01
  +6.83037128695e-01
  +7.08699813650e-01
  +7.29566123524e-01
  +7.47189169427e-01
  +7.62406213161e-01
  +7.75744622766e-01
  +7.87567822391e-01
  +7.98140981095e-01
  +8.07665289736e-01
  +8.16297794011e-01
  +8.24163763879e-01
  +8.31364852807e-01
  +8.37984716284e-01
  +8.44093013870e-01
  +8.49748338263e-01
  +8.55000407527e-01
  +8.59891736693e-01
  +8.64458932765e-01
  +8.68733711846e-01
  +8.72743707584e-01
  +8.76513120605e-01
  +8.80063245172e-01
  +8.83412899892e-01
  +8.86578782699e-01
  +8.89575765476e-01
  +8.92417140184e-01
  +8.95114825671e-01
  +8.97679542430e-01
  +9.00120961029e-01
  +9.02447828765e-01
  +9.04668078243e-01
  +9.06788920837e-01
  +9.08816927471e-01
  +9.10758098683e-01
  +9.12617925617e-01
  +9.14401443311e-01
  +9.16113277373e-01
  +9.17757685004e-01
  +9.19338591166e-01
  +9.20859620542e-01
  +9.22324125844e-01
  +9.23735212988e-01
  +9.25095763484e-01
  +9.26408454430e-01
  +9.27675776403e-01
  +9.28900049483e-01
  +9.30083437658e-01
  +9.31227961776e-01
  +9.32335511233e-01
  +9.33407854523e-01
  +9.34446648787e-01
  +9.35453448476e-01
  +9.36429713194e-01
  +9.37376814857e-01
  +9.38296044194e-01
  +9.39188616677e-01
  +9.40055677948e-01
  +9.40898308772e-01
  +9.41717529577e-01
  +9.42514304614e-01
  +9.43289545784e-01
  +9.44044116149e-01
  +9.44778833161e-01
  +9.45494471647e-01
  +9.46191766559e-01
  +9.46871415502e-01
  +9.47534081092e-01
  +9.48180393120e-01
  +9.48810950564e-01
  +9.49426323455e-01
  +9.50027054610e-01
  +9.50613661234e-01
  +9.51186636420e-01
  +9.51746450540e-01
  +9.52293552536e-01
  +9.52828371136e-01
  +9.53351315972e-01
  +9.53862778642e-01
  +9.54363133687e-01
  +9.54852739511e-01
  +9.55331939245e-01
  +9.55801061551e-01
  +9.56260421379e-01
  +9.56710320673e-01
  +9.57151049038e-01
  +9.57582884367e-01
  +9.58006093425e-01
  +9.58420932398e-01
  +9.58827647420e-01
  +9.59226475058e-01
  +9.59617642770e-01
  +9.60001369347e-01
  +9.60377865314e-01
  +9.60747333324e-01
  +9.61109968518e-01
  +9.61465958875e-01
  +9.61815485531e-01
  +9.62158723094e-01
  +9.62495839936e-01
  +9.62826998462e-01
  +9.63152355381e-01
  +9.63472061948e-01
  +9.63786264201e-01
  +9.64095103187e-01
  +9.64398715168e-01
  +9.64697231825e-01
  +9.64990780453e-01
  +9.65279484136e-01
  +9.65563461922e-01
  +9.65842828989e-01
  +9.66117696800e-01
  +9.66388173251e-01
  +9.66654362813e-01
  +9.66916366667e-01
  +9.67174282833e-01
  +9.67428206291e-01
  +9.67678229101e-01
  +9.67924440512e-01
  +9.68166927069e-01
  +9.68405772715e-01
  +9.68641058887e-01
  +9.68872864612e-01
  +9.69101266591e-01
  +9.69326339289e-01
  +9.69548155012e-01
  +9.69766783986e-01
  +9.69982294432e-01
  +9.70194752634e-01
  +9.70404223015e-01
  +9.70610768191e-01
  +9.70814449043e-01
  +9.71015324774e-01
  +9.71213452962e-01
  +9.71408889623e-01
  +9.71601689257e-01
  +9.71791904905e-01
  +9.71979588190e-01
  +9.72164789373e-01
  +9.72347557390e-01
  +9.72527939898e-01
  +9.72705983321e-01
  +9.72881732880e-01
  +9.73055232642e-01
  +9.73226525549e-01
  +9.73395653458e-01
  +9.73562657174e-01
  +9.73727576482e-01
  +9.73890450178e-01
  +9.74051316103e-01
  +9.74210211169e-01
  +9.74367171388e-01
  +9.74522231900e-01
  +9.74675426998e-01
  +9.74826790157e-01
  +9.74976354052e-01
  +9.75124150587e-01
  +9.75270210916e-01
  +9.75414565465e-01
  +9.75557243952e-01
  +9.75698275408e-01
  +9.75837688199e-01
  +9.75975510042e-01
  +9.76111768024e-01
  +9.76246488622e-01
  +9.76379697717e-01
  +9.76511420614e-01
  +9.76641682053e-01
  +9.76770506230e-01
  +9.76897916809e-01
  +9.77023936938e-01
  +9.77148589262e-01
  +9.77271895936e-01
  +9.77393878638e-01
  +9.77514558584e-01
  +9.77633956541e-01
  +9.77752092833e-01
  +9.77868987359e-01
  +9.77984659601e-01
  +9.78099128635e-01
  +9.78212413142e-01
  +9.78324531420e-01
  +9.78435501389e-01
  +9.78545340606e-01
  +9.78654066271e-01
  +9.78761695235e-01
  +9.78868244015e-01
  +9.78973728793e-01
  +9.79078165433e-01
  +9.79181569484e-01
  +9.79283956187e-01
  +9.79385340486e-01
  +9.79485737036e-01
  +9.79585160203e-01
  +9.79683624079e-01
  +9.79781142484e-01
  +9.79877728975e-01
  +9.79973396847e-01
  +9.80068159150e-01
  +9.80162028682e-01
</dep>
<dep _net0.V R1>
  +1.00000000000e+00
  +1.00000000000e+00
  +1.00000000000e+00
  +1.00000000000e+00
  +1.00000000000e+00
  +1.00000000000e+00
  +1.00000000000e+00
  +1.00000000000e+00
  +1.00000000000e+00
  +1.00000000000e+00
  +1.00000000000e+00
  +1.00000000000e+00
  +1.00000000000e+00
  +1.00000000000e+00
  +1.00000000000e+00
  +1.00000000000e+00
  +1.00000000000e+00
  +1.00000000000e+00
  +1.00000000000e+00
  +1.00000000000e+00
  +1.00000000000e+00
  +1.00000000000e+00
  +1.00000000000e+00
  +1.00000000000e+00
  +1.00000000000e+00
  +1.00000000000e+00
  +1.00000000000e+00
  +1.00000000000e+00
  +1.00000000000e+00
  +1.00000000000e+00
  +1.00000000000e+00
  +1.00000000000e+00
  +1.00000000000e+00
  +1.00000000000e+00
  +1.00000000000e+00
  +1.00000000000e+00
  +1.00000000000e+00
  +1.00000000000e+00
  +1.00000000000e+00
  +1.00000000000e+00
  +1.00000000000e+00
  +1.00000000000e+00
  +1.00000000000e+00
  +1.00000000000e+00
  +1.00000000000e+00
  +1.00000000000e+00
  +1.00000000000e+00
  +1.00000000000e+00
  +1.00000000000e+00
  +1.00000000000e+00
  +1.00000000000e+00
  +1.00000000000e+00
  +1.00000000000e+00
  +1.00000000000e+00
  +1.00000000000e+00
  +1.00000000000e+00
  +1.00000000000e+00
  +1.00000000000e+00
  +1.00000000000e+00
  +1.00000000000e+00
  +1.00000000000e+00
  +1.00000000000e+00
  +1.00000000000e+00
  +1.00000000000e+00
  +1.00000000000e+00
  +1.00000000000e+00
  +1.00000000000e+00
  +1.00000000000e+00
  +1.00000000000e+00
  +1.00000000000e+00
  +1.00000000000e+00
  +1.00000000000e+00
  +1.00000000000e+00
  +1.00000000000e+00
  +1.00000000000e+00
  +1.00000000000e+00
  +1.00000000000e+00
  +1.00000000000e+00
  +1.00000000000e+00
  +1.00000000000e+00
  +1.00000000000e+00
  +1.00000000000e+00
  +1.00000000000e+00
  +1.00000000000e+00
  +1.00000000000e+00
  +1.00000000000e+00
  +1.00000000000e+00
  +1.00000000000e+00
  +1.00000000000e+00
  +1.00000000000e+00
  +1.00000000000e+00
  +1.00000000000e+00
  +1.00000000000e+00
  +1.00000000000e+00
  +1.00000000000e+00
  +1.00000000000e+00
  +1.00000000000e+00
  +1.00000000000e+00
  +1.00000000000e+00
  +1.00000000000e+00
  +1.00000000000e+00
  +1.00000000000e+00
  +1.00000000000e+00
  +1.00000000000e+00
  +1.00000000000e+00
  +1.00000000000e+00
  +1.00000000000e+00
  +1.00000000000e+00
  +1.00000000000e+00
  +1.00000000000e+00
  +1.00000000000e+00
  +1.00000000000e+00
  +1.00000000000e+00
  +1.00000000000e+00
  +1.00000000000e+00
  +1.00000000000e+00
  +1.00000000000e+00
  +1.00000000000e+00
  +1.00000000000e+00
  +1.00000000000e+00
  +1.00000000000e+00
  +1.00000000000e+00
  +1.00000000000e+00
  +1.00000000000e+00
  +1.00000000000e+00
  +1.00000000000e+00
  +1.00000000000e+00
  +1.00000000000e+00
  +1.00000000000e+00
  +1.00000000000e+00
  +1.00000000000e+00
  +1.00000000000e+00
  +1.00000000000e+00
  +1.00000000000e+00
  +1.00000000000e+00
  +1.00000000000e+00
  +1.00000000000e+00
  +1.00000000000e+00
  +1.00000000000e+00
  +1.00000000000e+00
  +1.00000000000e+00
  +1.00000000000e+00
